freq[MHz],db:Trc1_S21,ang:Trc1_S21,db:Trc2_S31,ang:Trc2_S31,db:Trc3_S41,ang:Trc3_S41,db:Trc4_S11,ang:Trc4_S11,db:Mem5[Trc3]_S41,ang:Mem5[Trc3]_S41
50,-9.347072149186522E+000,-3.684828145326649E+000,-8.950439977899174E+000,-3.901193860022804E+001,-8.191794879427535E+000,-7.059084457690646E+001,-4.184619414442016E+000,1.753309555040824E+002,-8.008543010864948E+000,-1.007086788343085E+002
51,-8.970402478725051E+000,-2.782814895664049E+000,-9.019223070053114E+000,-4.025048808751660E+001,-8.210806109024878E+000,-6.904813905730600E+001,-4.066525623822986E+000,1.767951913866921E+002,-8.113180267594553E+000,-9.983724360868430E+001
52,-9.098790917891673E+000,-1.542122975920874E+000,-8.754540564080697E+000,-4.161556125146858E+001,-8.229508453614312E+000,-7.080256353239334E+001,-4.140561996464523E+000,1.754490661129713E+002,-8.030109604137598E+000,-1.021734621247804E+002
53,-9.180766500395745E+000,-2.994959718136449E+000,-8.782555466581767E+000,-3.975386026528658E+001,-7.921346082766571E+000,-7.264991320623129E+001,-3.913501098565063E+000,1.741463711992481E+002,-7.717664069191568E+000,-1.064181944761372E+002
54,-8.918058529758881E+000,-3.028990201226950E+000,-8.636382658662338E+000,-4.028087464910117E+001,-8.263707535324453E+000,-7.444557035669804E+001,-3.760130223010231E+000,1.750604668897969E+002,-8.117707093282602E+000,-1.067163290112688E+002
55,-8.999962593058468E+000,-2.639485458956774E+000,-8.957310847113098E+000,-4.046661018158657E+001,-8.192067894124371E+000,-7.494649487174979E+001,-4.044106073255478E+000,1.752402670831774E+002,-8.059070300715316E+000,-1.079597631204771E+002
56,-9.183932124836396E+000,7.038745048616704E-001,-9.246128907228007E+000,-4.331642412471346E+001,-8.418632050834273E+000,-7.561483967709094E+001,-4.000957580121554E+000,1.751086052874216E+002,-7.969956902915414E+000,-1.097831312896949E+002
57,-9.094894629564235E+000,-2.875329127950904E+000,-9.218966544581052E+000,-4.339246097385281E+001,-8.649040905587240E+000,-7.737473445247915E+001,-4.014954368353961E+000,1.751047628073163E+002,-8.268870289951718E+000,-1.112540929197339E+002
58,-8.970575126173159E+000,-4.834062321664038E-001,-8.925916546044137E+000,-4.404631839213866E+001,-7.969814952549098E+000,-8.001325992908842E+001,-4.008432846841353E+000,1.745818286844335E+002,-7.717767759873949E+000,-1.153427836180630E+002
59,-9.232319094101026E+000,-7.147058348803681E-001,-8.674602432073710E+000,-4.719220739850069E+001,-8.490472549305956E+000,-8.184362726377451E+001,-4.091895161135374E+000,1.741550775095998E+002,-8.114909895466699E+000,-1.159837257170939E+002
60,-9.019133431733275E+000,-1.732568455915009E+000,-9.092849650539668E+000,-4.697985377860022E+001,-8.674839590860568E+000,-8.191801930813195E+001,-4.005908359220894E+000,1.744866187442133E+002,-8.245710921959427E+000,-1.170000218517242E+002
61,-8.936796804123448E+000,1.168831749870867E-001,-9.065472141191316E+000,-4.790118132586213E+001,-8.772861537899194E+000,-8.322111950947165E+001,-4.012242832739206E+000,1.728979834469082E+002,-8.070570285494588E+000,-1.202516683568878E+002
62,-8.891167436400680E+000,-6.842432441219845E-001,-9.220426594947181E+000,-4.769615924559643E+001,-8.401945839930489E+000,-8.578212414829996E+001,-3.940344224117148E+000,1.733633682136912E+002,-7.891406440458525E+000,-1.230123731683981E+002
63,-8.626345931211407E+000,-8.139613940547112E-001,-8.863443009038990E+000,-4.849129479918238E+001,-8.274786384487081E+000,-8.628385639528442E+001,-4.096582723389690E+000,1.728609348058257E+002,-8.015665642962519E+000,-1.255832059631362E+002
64,-9.107587182943506E+000,-3.727515321070379E-001,-9.001700241988360E+000,-4.664195531027089E+001,-8.246314483400441E+000,-8.934820332501889E+001,-4.020725875745779E+000,1.729495881785462E+002,-7.777935398230614E+000,-1.281751203040784E+002
65,-8.717638599898557E+000,2.623142907704581E-001,-8.906218290866752E+000,-4.762346431579212E+001,-8.069272512187142E+000,-9.002859731096737E+001,-3.991052314980769E+000,1.736773457331748E+002,-7.727181377095621E+000,-1.308932160971293E+002
66,-8.825892756778538E+000,-4.451812965313184E-001,-8.971671584693091E+000,-5.004015927649357E+001,-8.288634445061366E+000,-9.076701537472748E+001,-4.177561882389392E+000,1.731790726909165E+002,-7.912190383571372E+000,-1.311776976618718E+002
67,-8.757928192576930E+000,-4.615472188559513E-001,-9.067163667732771E+000,-4.959959116708182E+001,-8.460800539336432E+000,-9.211130658167031E+001,-4.114003004837275E+000,1.724591931376525E+002,-7.998360226790325E+000,-1.326084810760267E+002
68,-8.891755028186944E+000,-2.897478447200470E-001,-9.164058978294140E+000,-5.068072834029456E+001,-8.160287445800536E+000,-9.343877602078300E+001,-4.333631109201981E+000,1.725556393546968E+002,-7.738120032151601E+000,-1.353412514606301E+002
69,-8.519153423013053E+000,6.328159095475117E-001,-8.927663310105423E+000,-5.130832514992812E+001,-8.646611754907626E+000,-9.486530681712395E+001,-3.961433084833002E+000,1.735886474074788E+002,-8.085628220861548E+000,-1.360619193964555E+002
70,-8.995833217149924E+000,-1.160464930751071E-001,-9.085271810732786E+000,-5.092104441993256E+001,-8.328112876645795E+000,-9.680490784650273E+001,-4.338169979496047E+000,1.733983733211500E+002,-7.802254835443198E+000,-1.395794315041662E+002
71,-8.595415856389369E+000,1.420242002466247E+000,-8.837133427562730E+000,-5.206552530789018E+001,-8.414644266117744E+000,-9.660468523160749E+001,-4.210016478428358E+000,1.730725531394496E+002,-7.914496990228532E+000,-1.412593455423319E+002
72,-8.725542100875824E+000,2.724040117522967E-001,-9.021555413326158E+000,-5.368113979830001E+001,-8.309233876166031E+000,-1.002089316622147E+002,-4.332265598040648E+000,1.715193184443447E+002,-7.816417586612155E+000,-1.447294600068809E+002
73,-8.855621774048275E+000,1.986358402391896E-001,-9.065238888552647E+000,-5.305985091562707E+001,-8.327662979450629E+000,-9.965992743493750E+001,-4.285432321342939E+000,1.730796985928935E+002,-7.750940068862059E+000,-1.445234765055037E+002
74,-8.544155028603408E+000,3.549568137354141E-001,-9.138248424314154E+000,-5.399093021519681E+001,-8.427769993613588E+000,-1.019355372344306E+002,-4.318392128590676E+000,1.726905353791489E+002,-7.824344516729358E+000,-1.477704287016670E+002
75,-8.779174318235883E+000,-1.828153893847985E-001,-8.861685491003874E+000,-5.385763131863794E+001,-8.448396266971782E+000,-1.034468364003668E+002,-4.340518096348556E+000,1.720403647396234E+002,-7.936669307529885E+000,-1.499134300638995E+002
76,-8.670053055244816E+000,-2.872771473459708E-001,-9.060622245770734E+000,-5.376700192361375E+001,-8.357974159654033E+000,-1.044375295563161E+002,-4.292275375056494E+000,1.717879545464978E+002,-7.620232230441560E+000,-1.517249232815458E+002
77,-8.768234974153872E+000,-1.014120300520244E+000,-9.043453470868343E+000,-5.470161458559725E+001,-8.737529061419924E+000,-1.068958601562112E+002,-4.196391932780193E+000,1.721948800352984E+002,-7.920712838503645E+000,-1.529335074330324E+002
78,-8.560511206432709E+000,-3.655987243455411E-001,-8.806573472342025E+000,-5.584463173722820E+001,-8.308304873795219E+000,-1.079858255404718E+002,-4.274175851192048E+000,1.705036593896487E+002,-7.692141196979703E+000,-1.569146802822649E+002
79,-8.417563003188226E+000,-7.293119491150689E-001,-8.889776470605108E+000,-5.704241951266408E+001,-8.301425931661326E+000,-1.097074010592607E+002,-4.362490973616996E+000,1.713774334361036E+002,-7.758916026368601E+000,-1.592856204278180E+002
80,-8.516238028385377E+000,-1.304570842105656E+000,-8.875097320972058E+000,-5.780880483183132E+001,-8.363402320119008E+000,-1.113166502600062E+002,-4.285754905410043E+000,1.723697289260109E+002,-7.852983132291763E+000,-1.600442361191051E+002
81,-8.389685264870828E+000,-8.847073117776250E-001,-9.103324160231695E+000,-5.916920475524675E+001,-8.423028064435796E+000,-1.115789168627920E+002,-4.331734960642454E+000,1.709152297277499E+002,-7.641707984843604E+000,-1.618696537547218E+002
82,-8.437044042703946E+000,-1.297937388737574E+000,-8.806036348796317E+000,-5.748567459891948E+001,-8.310960748535756E+000,-1.118429486869432E+002,-4.447869102714932E+000,1.708506928217290E+002,-7.556981862483379E+000,-1.647722983942278E+002
83,-8.405623116690032E+000,-2.413949124438830E+000,-9.024109711155512E+000,-6.003613339383402E+001,-8.429876539945836E+000,-1.148748382890626E+002,-4.528029128293027E+000,1.717887602973333E+002,-7.701140153050482E+000,-1.663685722715974E+002
84,-8.086120174572459E+000,-4.279391647562344E-001,-8.933552083809376E+000,-6.188716643001692E+001,-8.525008276439820E+000,-1.150232771028522E+002,-4.515327723953033E+000,1.717228823331165E+002,-7.886866445591614E+000,-1.684619372852105E+002
85,-8.474915350126606E+000,-1.566471142552165E+000,-9.062031117061796E+000,-6.005919957528419E+001,-8.515865521232540E+000,-1.164288689210337E+002,-4.488311633292264E+000,1.704663941589029E+002,-7.603069541120881E+000,-1.707403210906218E+002
86,-8.284079040389283E+000,-1.291345792060072E+000,-8.935418266793580E+000,-6.237462359985391E+001,-8.558525970092347E+000,-1.190829418046867E+002,-4.541245787487535E+000,1.718437013207971E+002,-7.757847423701446E+000,-1.723397430822259E+002
87,-8.285983146856303E+000,-9.359857836242580E-001,-8.901710883937163E+000,-6.186673662130273E+001,-8.682759519555502E+000,-1.211250289984614E+002,-4.435127580696556E+000,1.724562814455159E+002,-7.903238593784467E+000,-1.754143930067550E+002
88,-8.330074486614910E+000,-1.608587005222806E+000,-8.929011609010697E+000,-6.201772802114289E+001,-8.512353801432230E+000,-1.207196125342007E+002,-4.526034666537393E+000,1.715721971012735E+002,-7.689770548016887E+000,-1.776751777291727E+002
89,-8.216072901047474E+000,-3.431057393975605E+000,-8.968318310351943E+000,-6.399057526130574E+001,-8.682308394846368E+000,-1.228408497634735E+002,-4.578220872609015E+000,1.709641897378398E+002,-7.902089338910010E+000,-1.794966725560812E+002
90,-8.317276548317354E+000,-4.435365596014584E+000,-9.063867260532510E+000,-6.403278969602620E+001,-8.398802406993404E+000,-1.234991375015497E+002,-4.726546038325210E+000,1.710822286112430E+002,-7.692775061901345E+000,1.781035876629637E+002
91,-8.408943505301339E+000,-2.410181186974577E+000,-8.938060479503360E+000,-6.454415007521483E+001,-8.598254018982741E+000,-1.250014318765592E+002,-4.631593996392769E+000,1.715224735915231E+002,-7.606632722829159E+000,1.768984150045375E+002
92,-8.343369257036464E+000,-2.219386315978539E+000,-8.792033707776694E+000,-6.377508301570781E+001,-8.766848644824510E+000,-1.261192545719866E+002,-4.542649913580677E+000,1.718473355687702E+002,-7.799974600368189E+000,1.749325283369772E+002
93,-8.307739307263372E+000,-3.229547361078676E+000,-8.890083740102849E+000,-6.572121761463392E+001,-8.537440240557016E+000,-1.283655646855515E+002,-4.609458665558356E+000,1.720460077309588E+002,-7.622305606537725E+000,1.723547654548737E+002
94,-8.261908066507953E+000,-3.165192795508481E+000,-8.843146633281309E+000,-6.558166615366213E+001,-8.668411532483042E+000,-1.289338360835249E+002,-4.648980482279808E+000,1.719447906705654E+002,-7.772651427360474E+000,1.695446200901647E+002
95,-8.234497506727561E+000,-2.307114425511130E+000,-8.861518159149425E+000,-6.707884232356371E+001,-8.627169906902042E+000,-1.296557420251568E+002,-4.562519800989853E+000,1.720908217872727E+002,-7.614128920191876E+000,1.692574821465272E+002
96,-8.210842715007518E+000,-3.611737594115965E+000,-8.903114903250746E+000,-6.713266009771763E+001,-8.667724032744063E+000,-1.320494171114882E+002,-4.534033034021719E+000,1.717422877263121E+002,-7.687950361635129E+000,1.660710337510240E+002
97,-8.179557382196848E+000,-3.754066070548728E+000,-8.872610940469620E+000,-6.792794227355131E+001,-8.606422371021468E+000,-1.334709275751209E+002,-4.589387202186239E+000,1.722430529589236E+002,-7.790800486222185E+000,1.632425628665640E+002
98,-8.260629432922253E+000,-4.795910153357222E+000,-8.796209305616120E+000,-6.848650292618757E+001,-8.508942548941716E+000,-1.349162092451805E+002,-4.576282604746492E+000,1.722560594082797E+002,-7.645307118461120E+000,1.612998429649826E+002
99,-8.258494014417218E+000,-3.612145416200614E+000,-8.871371472338598E+000,-6.881891357490289E+001,-8.571997037722380E+000,-1.357576407697268E+002,-4.656409966020727E+000,1.720282099394823E+002,-7.634172505333433E+000,1.593872840523219E+002
100,-8.175042002322051E+000,-4.875147600331546E+000,-8.794619546379959E+000,-7.088333603889207E+001,-8.468723301395841E+000,-1.372229900931100E+002,-4.609029665923785E+000,1.720115222201902E+002,-7.615515560358117E+000,1.571593496440796E+002
101,-8.230123079619476E+000,-2.649422912065657E+000,-8.790248234205656E+000,-7.123058081406887E+001,-8.638887308225604E+000,-1.389041761799362E+002,-4.680890246217072E+000,1.720464335861323E+002,-7.605143453097684E+000,1.547157189871272E+002
102,-8.276424371719369E+000,-3.733775723170650E+000,-8.620443649607084E+000,-7.148307577348489E+001,-8.666597831619011E+000,-1.396489157936277E+002,-4.603616026703640E+000,1.725077441032485E+002,-7.740127842005806E+000,1.535724454646140E+002
103,-8.291241835057239E+000,-5.602231973390175E+000,-8.757970538302814E+000,-7.338733025452264E+001,-8.683362760906201E+000,-1.419684785913891E+002,-4.718971150410606E+000,1.718356501269819E+002,-7.847220325406680E+000,1.507265299231186E+002
104,-8.209434925642690E+000,-4.934612032651699E+000,-8.810685792649609E+000,-7.322628006073336E+001,-8.635840893768288E+000,-1.422886759471559E+002,-4.697189708747543E+000,1.723940916204002E+002,-7.693400222631427E+000,1.487104997641496E+002
105,-8.247948095189573E+000,-5.473378018213188E+000,-8.772989596777528E+000,-7.392299436860731E+001,-8.765662997243528E+000,-1.447628448750723E+002,-4.577005849465903E+000,1.719127435905919E+002,-7.776965416468527E+000,1.460789528672796E+002
106,-8.186479259014412E+000,-5.941383761745019E+000,-8.708505213334158E+000,-7.514917370840607E+001,-8.663700922262553E+000,-1.452391772325047E+002,-4.504801542025580E+000,1.721683326219060E+002,-7.741926377196464E+000,1.451694048008089E+002
107,-8.154407569089543E+000,-5.313238515107821E+000,-8.659129619800387E+000,-7.573524551183334E+001,-8.799607416700212E+000,-1.461570630324716E+002,-4.529365390050152E+000,1.720707943636917E+002,-7.812732384569534E+000,1.432332671197706E+002
108,-8.282993863368315E+000,-5.625140221859247E+000,-8.627739535882215E+000,-7.691552928929005E+001,-8.726868959214118E+000,-1.482780022925092E+002,-4.627396255028394E+000,1.721026211877703E+002,-7.846169004350715E+000,1.402051795992956E+002
109,-8.373258560832731E+000,-6.621956930845474E+000,-8.666025298646613E+000,-7.755397764739712E+001,-8.786813559052257E+000,-1.502920913041916E+002,-4.469924580895261E+000,1.715840833316979E+002,-7.780945250207542E+000,1.389091619541853E+002
110,-8.293899542219553E+000,-6.216332898908206E+000,-8.726320308508498E+000,-7.891152796474944E+001,-8.878737889067141E+000,-1.507313294931283E+002,-4.496383925284732E+000,1.718111588240982E+002,-7.829119068486803E+000,1.375690191034087E+002
111,-8.248200607078411E+000,-6.795953524652489E+000,-8.745992098798466E+000,-7.886112802637769E+001,-8.881808301961671E+000,-1.525048675241951E+002,-4.456612313379297E+000,1.716598946085541E+002,-7.836675094072388E+000,1.347469336259781E+002
112,-8.152510688263481E+000,-5.715516903738028E+000,-8.800983811636501E+000,-8.068871361315588E+001,-8.914441705034189E+000,-1.535159019318898E+002,-4.480067863843550E+000,1.721348843873935E+002,-7.792993930393294E+000,1.318746169704341E+002
113,-8.345945852182661E+000,-6.007976069922528E+000,-8.568856259939629E+000,-7.962211302665364E+001,-8.848689512589020E+000,-1.548925774885309E+002,-4.491158647334309E+000,1.718965289620613E+002,-7.825531982625816E+000,1.296505698371718E+002
114,-8.344204105831095E+000,-5.639296586445054E+000,-8.697477295770854E+000,-8.043594689039672E+001,-8.916442863526218E+000,-1.552423489997487E+002,-4.563184713911181E+000,1.719434575201310E+002,-7.854802201024568E+000,1.283667835794194E+002
115,-8.351290973362202E+000,-6.753773356948532E+000,-8.643804122013252E+000,-8.200370087781424E+001,-8.849861570217845E+000,-1.576737524309228E+002,-4.534140081774669E+000,1.712149546581504E+002,-7.724135123497484E+000,1.255416136670667E+002
116,-8.379701703386880E+000,-5.534631424078621E+000,-8.610990824789662E+000,-8.220471196811307E+001,-8.968422438843836E+000,-1.580012459129382E+002,-4.563117076393638E+000,1.719534564771981E+002,-7.777311097884271E+000,1.241463486486263E+002
117,-8.533717706771231E+000,-6.599904363188789E+000,-8.710566432693394E+000,-8.253975964379552E+001,-8.854415070886040E+000,-1.599534683387986E+002,-4.501022727962057E+000,1.717414297343860E+002,-7.714272191587437E+000,1.215572878423670E+002
118,-8.394108841273511E+000,-6.873011756236624E+000,-8.637731494047282E+000,-8.404253018894393E+001,-8.904885621608479E+000,-1.607808414022800E+002,-4.478517433920158E+000,1.712675394432241E+002,-7.836503648456045E+000,1.205522399516144E+002
119,-8.490481872661848E+000,-6.534795969572887E+000,-8.627056765378317E+000,-8.435244828221920E+001,-8.936094851403363E+000,-1.631103095590791E+002,-4.461564600083384E+000,1.714807159331308E+002,-7.827352771950307E+000,1.168954939665606E+002
120,-8.417659685434204E+000,-6.967530075985478E+000,-8.696174329374820E+000,-8.598049695740070E+001,-8.984459625818330E+000,-1.631683936061442E+002,-4.438741753888201E+000,1.716461901228031E+002,-7.826233571450457E+000,1.160372245541628E+002
121,-8.513913845896340E+000,-5.843482539006940E+000,-8.739944496980813E+000,-8.617144636676180E+001,-9.100462258133662E+000,-1.644898200472795E+002,-4.487895033640366E+000,1.716801150876327E+002,-7.855565222452017E+000,1.141857216297647E+002
122,-8.406534997810615E+000,-5.723934921308035E+000,-8.506038290619225E+000,-8.714302909095405E+001,-8.875681023781198E+000,-1.661309834367186E+002,-4.383121211570751E+000,1.714649943720899E+002,-7.804911397576487E+000,1.118077624503627E+002
123,-8.433228643151603E+000,-6.423938300389455E+000,-8.523209842095394E+000,-8.773962277268593E+001,-9.033085311900612E+000,-1.670706492918068E+002,-4.498013972339898E+000,1.710265164386190E+002,-7.859772544421852E+000,1.097474114160017E+002
124,-8.489251861822941E+000,-6.875524026616149E+000,-8.572389567466670E+000,-8.858174904292036E+001,-9.000227061596917E+000,-1.684247801673736E+002,-4.460698571105707E+000,1.709192915853875E+002,-7.863146169552799E+000,1.075584067028626E+002
125,-8.521987807218396E+000,-6.337167917890193E+000,-8.481243441364676E+000,-8.969367271724502E+001,-8.886234066713003E+000,-1.699438596597249E+002,-4.421842422446830E+000,1.711634239358517E+002,-7.787982370850680E+000,1.055069363303952E+002
126,-8.313441064869574E+000,-6.216815814195797E+000,-8.684410679400282E+000,-9.072548357956836E+001,-9.074387935271476E+000,-1.713055980376924E+002,-4.422632783297258E+000,1.705396708785358E+002,-7.847117317359402E+000,1.025866231244645E+002
127,-8.415810169075844E+000,-6.867752473022017E+000,-8.583714091439008E+000,-9.103411271330860E+001,-9.141740335744299E+000,-1.721089168018878E+002,-4.493341099581185E+000,1.708450146905611E+002,-7.957784614951454E+000,1.011000044266973E+002
128,-8.547708044788998E+000,-6.855612210375115E+000,-8.696557960456971E+000,-9.182718626467724E+001,-9.005113119238109E+000,-1.734238880466214E+002,-4.468445371376395E+000,1.706847242838140E+002,-7.839190333199831E+000,9.934043267408401E+001
129,-8.426420015546894E+000,-6.238015373080614E+000,-8.562708656184233E+000,-9.153672427024779E+001,-9.091840368201249E+000,-1.741757309568437E+002,-4.496216863655400E+000,1.705518825832994E+002,-7.907163483675338E+000,9.689669742603159E+001
130,-8.364370706790501E+000,-6.245790153288033E+000,-8.656223634049358E+000,-9.393390594928390E+001,-9.067932871038620E+000,-1.761995639502963E+002,-4.421394256225051E+000,1.701024384662564E+002,-7.857359368489722E+000,9.545504232126504E+001
131,-8.366077926827247E+000,-6.338430833033007E+000,-8.521934398578919E+000,-9.500181106629593E+001,-9.038495498867206E+000,-1.770655034711785E+002,-4.372648416393077E+000,1.702211172371745E+002,-7.907554312154752E+000,9.391506691807473E+001
